
T1504 000:882 SEGGER J-Link V4.35b (beta) Log File (0043ms, 0881ms total)
T1504 000:882 DLL Compiled: Sep  2 2011 18:34:46 (0043ms, 0881ms total)
T1504 000:882 Logging started @ 2017-11-01 10:21 (0043ms, 0881ms total)
T1504 000:925 JLINK_SetWarnOutHandler(...) (0000ms, 0924ms total)
T1504 000:925 JLINK_OpenEx(...)
Firmware: J-Link ARM V8 compiled Nov 28 2014 13:44:46
Hardware: V8.00
Feature(s): RDI,FlashDL,FlashBP,JFlash,GDBFULL  returns O.K. (0659ms, 0924ms total)
T1504 001:584 JLINK_SetErrorOutHandler(...) (0000ms, 1583ms total)
T1504 001:584 JLINK_ExecCommand("Device = STM32F103RC", ...)
                JLINK_ExecCommand("map ram 0x20000000 - 0x2000BFFF", ...)  returns 0x00 (0000ms, 0000ms total)
                JLINK_AddMirrorAreaEx(Addr = 0x00000000, Size = 0x00000000) (0000ms, 0000ms total)
              Device "STM32F103RC" selected (256 KB flash, 48 KB RAM).  returns 0x00 (0002ms, 1583ms total)
T1504 001:588 JLINK_ExecCommand("ProjectFile = "G:\测试程序\16年\8月\GTU_8月份_低功耗测试\GTU-Proj\Proj\JLinkSettings.ini"", ...)  returns 0x00 (0001ms, 1585ms total)
T1504 001:592 JLINK_ExecCommand("DisableConnectionTimeout", ...)  returns 0x00 (0000ms, 1586ms total)
T1504 001:592 JLINK_TIF_Select(JLINKARM_TIF_SWD)  returns 0x00 (0002ms, 1586ms total)
T1504 001:594 JLINK_SetSpeed(2000) (0000ms, 1588ms total)
T1504 001:594 JLINK_GetHardwareVersion()  returns 0x13880 (0000ms, 1588ms total)
T1504 001:594 JLINK_GetDLLVersion()  returns 43502 (0000ms, 1588ms total)
T1504 001:594 JLINK_GetFirmwareString(...) (0000ms, 1588ms total)
T1504 001:601 JLINK_GetDLLVersion()  returns 43502 (0000ms, 1588ms total)
T1504 001:601 JLINK_GetCompileDateTime() (0000ms, 1588ms total)
T1504 001:603 JLINK_GetFirmwareString(...) (0000ms, 1588ms total)
T1504 001:612 JLINK_GetHardwareVersion()  returns 0x13880 (0001ms, 1588ms total)
T1504 001:631 JLINK_GetId() >0x108 TIF>Found SWD-DP with ID 0x1BA01477 >0x33 TIF> >0x33 TIF> >0x35 TIF> >0x33 TIF> >0x33 TIF> >0x35 TIF> >0x33 TIF> >0x33 TIF> >0x35 TIF> >0x33 TIF> >0x33 TIF> >0x35 TIF> >0x33 TIF> >0x33 TIF> >0x35 TIF> >0x35 TIF> >0x35 TIF> >0x35 TIF> >0x35 TIF> >0x33 TIF> >0x33 TIF> >0x35 TIF> >0x35 TIF> >0x35 TIF> >0x33 TIF> >0x33 TIF> >0x33 TIF>TPIU fitted.ETM fitted. >0x35 TIF> >0x33 TIF> >0x33 TIF> >0x35 TIF> >0x33 TIF> >0x33 TIF>  FPUnit: 6 code (BP) slots and 2 literal slots
 >0x35 TIF> >0x33 TIF> >0x33 TIF> >0x35 TIF> >0x33 TIF> >0x33 TIF> >0x35 TIF> >0x33 TIF> >0x33 TIF>Found Cortex-M3 r1p1, Little endian. >0x33 TIF>  returns 0x1BA01477 (0040ms, 1589ms total)
T1504 001:671 JLINK_GetDebugInfo(0x100) -- Value=0xE00FF003  returns 0x00 (0001ms, 1629ms total)
T1504 001:675 JLINK_ReadMem (0xE00FFFF0, 0x0010 Bytes, ...) -- CPU is running -- CPU_ReadMem(16 bytes @ 0xE00FFFF0) -- Data:  0D 00 00 00 10 00 00 00 05 00 00 00 B1 00 00 00  returns 0x00 (0001ms, 1630ms total)
T1504 001:676 JLINK_ReadMem (0xE00FFFD0, 0x0020 Bytes, ...) -- CPU is running -- CPU_ReadMem(32 bytes @ 0xE00FFFD0) -- Data:  00 00 00 00 00 00 00 00 00 00 00 00 00 00 00 00 ...  returns 0x00 (0001ms, 1631ms total)
T1504 001:677 JLINK_ReadMem (0xE00FF000, 0x0018 Bytes, ...) -- CPU is running -- CPU_ReadMem(24 bytes @ 0xE00FF000) -- Data:  03 F0 F0 FF 03 20 F0 FF 03 30 F0 FF 03 10 F0 FF ...  returns 0x00 (0001ms, 1632ms total)
T1504 001:678 JLINK_ReadMemU32(0xE000ED00, 0x0001 Items, ...) -- CPU is running -- CPU_ReadMem(4 bytes @ 0xE000ED00) -- Data:  31 C2 1F 41  returns 0x01 (0001ms, 1633ms total)
T1504 001:679 JLINK_SetResetType(JLINKARM_RESET_TYPE_NORMAL)  returns JLINKARM_RESET_TYPE_NORMAL (0000ms, 1634ms total)
T1504 001:679 JLINK_Reset() >0x108 TIF>Found SWD-DP with ID 0x1BA01477 >0x33 TIF> >0x33 TIF> >0x35 TIF> >0x33 TIF> >0x35 TIF> >0x33 TIF> >0x33 TIF> >0x35 TIF> >0x33 TIF> >0x33 TIF> >0x35 TIF> >0x33 TIF> >0x33 TIF> >0x35 TIF> >0x33 TIF> >0x33 TIF> >0x35 TIF> >0x35 TIF> >0x35 TIF> >0x35 TIF> >0x35 TIF> >0x33 TIF> >0x33 TIF> >0x35 TIF> >0x33 TIF> >0x33 TIF> >0x33 TIF>TPIU fitted.ETM fitted. >0x35 TIF> >0x33 TIF> >0x33 TIF> >0x35 TIF> >0x33 TIF> >0x33 TIF>  FPUnit: 6 code (BP) slots and 2 literal slots
 >0x35 TIF> >0x33 TIF> >0x33 TIF> >0x35 TIF> >0x33 TIF> >0x33 TIF> >0x35 TIF> >0x33 TIF> >0x33 TIF>Found Cortex-M3 r1p1, Little endian. -- CPU is running -- CPU_WriteMem(4 bytes @ 0xE000EDF0) -- CPU is running -- CPU_WriteMem(4 bytes @ 0xE000EDFC) >0x35 TIF> -- CPU is running -- CPU_WriteMem(4 bytes @ 0xE000ED0C) -- CPU is running -- CPU_ReadMem(4 bytes @ 0xE000EDF0) -- CPU is running -- CPU_ReadMem(4 bytes @ 0xE000EDF0) -- CPU is running -- CPU_ReadMem(4 bytes @ 0xE000EDF0) -- CPU is running
 -- CPU_ReadMem(4 bytes @ 0xE000EDF0) -- CPU is running -- CPU_ReadMem(4 bytes @ 0xE000EDF0) -- CPU is running -- CPU_ReadMem(4 bytes @ 0xE000EDF0) -- CPU is running -- CPU_ReadMem(4 bytes @ 0xE000EDF0) -- CPU is running -- CPU_ReadMem(4 bytes @ 0xE000EDF0) -- CPU is running -- CPU_ReadMem(4 bytes @ 0xE000EDF0) -- CPU is running -- CPU_ReadMem(4 bytes @ 0xE000EDF0) -- CPU is running -- CPU_ReadMem(4 bytes @ 0xE000EDF0) -- CPU is running -- CPU_ReadMem(4 bytes @ 0xE000EDF0) -- CPU is running
 -- CPU_ReadMem(4 bytes @ 0xE000EDF0) -- CPU is running -- CPU_ReadMem(4 bytes @ 0xE000EDF0) -- CPU is running -- CPU_ReadMem(4 bytes @ 0xE000EDF0) -- CPU is running -- CPU_ReadMem(4 bytes @ 0xE000EDF0) -- CPU is running -- CPU_ReadMem(4 bytes @ 0xE000EDF0) -- CPU is running -- CPU_WriteMem(4 bytes @ 0xE000EDF0) -- CPU is running -- CPU_WriteMem(4 bytes @ 0xE000EDFC) -- CPU is running -- CPU_ReadMem(4 bytes @ 0xE000EDF0) (0073ms, 1634ms total)
T1504 001:752 JLINK_Halt()  returns 0x00 (0000ms, 1707ms total)
T1504 001:752 JLINK_IsHalted()  returns TRUE (0000ms, 1707ms total)
T1504 001:752 JLINK_ReadMemU32(0xE000EDF0, 0x0001 Items, ...) -- CPU_ReadMem(4 bytes @ 0xE000EDF0) -- Data:  03 00 03 00  returns 0x01 (0001ms, 1707ms total)
T1504 001:753 JLINK_WriteU32(0xE000EDF0, 0xA05F0003) -- CPU_WriteMem(4 bytes @ 0xE000EDF0)  returns 0x00 (0000ms, 1708ms total)
T1504 001:753 JLINK_WriteU32(0xE000EDFC, 0x01000000) -- CPU_WriteMem(4 bytes @ 0xE000EDFC)  returns 0x00 (0001ms, 1708ms total)
T1504 001:754 JLINK_ReadMemU32(0xE0002000, 0x0001 Items, ...) -- CPU_ReadMem(4 bytes @ 0xE0002000) -- Data:  60 02 00 00  returns 0x01 (0001ms, 1709ms total)
T1504 001:755 JLINK_ReadMemU32(0xE0001000, 0x0001 Items, ...) -- CPU_ReadMem(4 bytes @ 0xE0001000) -- Data:  00 00 00 40  returns 0x01 (0001ms, 1710ms total)
T1504 001:756 JLINK_WriteU32(0xE0001028, 0x00000000) -- CPU_WriteMem(4 bytes @ 0xE0001028)  returns 0x00 (0001ms, 1711ms total)
T1504 001:757 JLINK_WriteU32(0xE0001038, 0x00000000) -- CPU_WriteMem(4 bytes @ 0xE0001038)  returns 0x00 (0001ms, 1712ms total)
T1504 001:758 JLINK_WriteU32(0xE0001048, 0x00000000) -- CPU_WriteMem(4 bytes @ 0xE0001048)  returns 0x00 (0001ms, 1713ms total)
T1504 001:759 JLINK_WriteU32(0xE0001058, 0x00000000) -- CPU_WriteMem(4 bytes @ 0xE0001058)  returns 0x00 (0001ms, 1714ms total)
T1504 001:777 JLINK_GetHWStatus(...)  returns 0x00 (0000ms, 1715ms total)
T1504 001:789 JLINK_GetNumBPUnits(Type = 0xFFFFFF00)  returns 0x06 (0000ms, 1715ms total)
T1504 001:789 JLINK_GetNumBPUnits(Type = 0xF0)  returns 0x2000 (0000ms, 1715ms total)
T1504 001:789 JLINK_GetNumWPUnits()  returns 0x04 (0000ms, 1715ms total)
T1504 001:801 JLINK_GetSpeed()  returns 0x7D0 (0000ms, 1715ms total)
T1504 001:810 JLINK_ReadMemU32(0xE000E004, 0x0001 Items, ...) -- CPU_ReadMem(4 bytes @ 0xE000E004) -- Data:  01 00 00 00  returns 0x01 (0001ms, 1715ms total)
T1504 001:811 JLINK_ReadMemU32(0xE000E004, 0x0001 Items, ...) -- CPU_ReadMem(4 bytes @ 0xE000E004) -- Data:  01 00 00 00  returns 0x01 (0001ms, 1716ms total)
T1504 001:812 JLINK_WriteMem(0xE0001000, 0x001C Bytes, ...) -- Data:  01 00 00 00 00 00 00 00 00 00 00 00 00 00 00 00 ... -- CPU_WriteMem(28 bytes @ 0xE0001000)  returns 0x1C (0001ms, 1717ms total)
T1504 001:813 JLINK_ReadMem (0xE0001000, 0x001C Bytes, ...) -- CPU_ReadMem(28 bytes @ 0xE0001000) -- Data:  01 00 00 40 00 00 00 00 00 00 00 00 00 00 00 00 ...  returns 0x00 (0001ms, 1718ms total)
T1504 001:814 JLINK_Halt()  returns 0x00 (0000ms, 1719ms total)
T1504 001:814 JLINK_IsHalted()  returns TRUE (0000ms, 1719ms total)
T1504 001:819 JLINK_WriteMem(0x20000000, 0x0164 Bytes, ...) -- Data:  00 BE 0A E0 0D 78 2D 06 68 40 08 24 40 00 00 D3 ... -- CPU_WriteMem(356 bytes @ 0x20000000)  returns 0x164 (0005ms, 1719ms total)
T1504 001:824 JLINK_WriteReg(R0, 0x08000000)  returns 0x00 (0000ms, 1724ms total)
T1504 001:824 JLINK_WriteReg(R1, 0x007A1200)  returns 0x00 (0000ms, 1724ms total)
T1504 001:824 JLINK_WriteReg(R2, 0x00000001)  returns 0x00 (0000ms, 1724ms total)
T1504 001:824 JLINK_WriteReg(R3, 0x00000000)  returns 0x00 (0000ms, 1724ms total)
T1504 001:824 JLINK_WriteReg(R4, 0x00000000)  returns 0x00 (0000ms, 1724ms total)
T1504 001:824 JLINK_WriteReg(R5, 0x00000000)  returns 0x00 (0000ms, 1724ms total)
T1504 001:824 JLINK_WriteReg(R6, 0x00000000)  returns 0x00 (0000ms, 1724ms total)
T1504 001:824 JLINK_WriteReg(R7, 0x00000000)  returns 0x00 (0000ms, 1724ms total)
T1504 001:824 JLINK_WriteReg(R8, 0x00000000)  returns 0x00 (0000ms, 1724ms total)
T1504 001:824 JLINK_WriteReg(R9, 0x20000160)  returns 0x00 (0000ms, 1724ms total)
T1504 001:824 JLINK_WriteReg(R10, 0x00000000)  returns 0x00 (0000ms, 1724ms total)
T1504 001:824 JLINK_WriteReg(R11, 0x00000000)  returns 0x00 (0000ms, 1724ms total)
T1504 001:824 JLINK_WriteReg(R12, 0x00000000)  returns 0x00 (0000ms, 1724ms total)
T1504 001:824 JLINK_WriteReg(R13, 0x20000800)  returns 0x00 (0000ms, 1724ms total)
T1504 001:824 JLINK_WriteReg(R14, 0x20000001)  returns 0x00 (0000ms, 1724ms total)
T1504 001:824 JLINK_WriteReg(R15, 0x20000038)  returns 0x00 (0000ms, 1724ms total)
T1504 001:824 JLINK_WriteReg(XPSR, 0x01000000)  returns 0x00 (0000ms, 1724ms total)
T1504 001:824 JLINK_WriteReg(MSP, 0x20000800)  returns 0x00 (0000ms, 1724ms total)
T1504 001:824 JLINK_WriteReg(PSP, 0x20000800)  returns 0x00 (0000ms, 1724ms total)
T1504 001:824 JLINK_WriteReg(BASEPRI, 0x00000000)  returns 0x00 (0000ms, 1724ms total)
T1504 001:824 JLINK_WriteReg(CONTROL, 0x00000000)  returns 0x00 (0000ms, 1724ms total)
T1504 001:824 JLINK_WriteReg(FAULTMASK, 0x00000000)  returns 0x00 (0000ms, 1724ms total)
T1504 001:824 JLINK_WriteReg(BASEPRI_MAX, 0x00000000)  returns 0x00 (0000ms, 1724ms total)
T1504 001:824 JLINK_SetBPEx(Addr = 0x20000000, Type = 0xFFFFFFF2) -- CPU_ReadMem(2 bytes @ 0x20000000)  returns 0x00000001 (0001ms, 1724ms total)
T1504 001:825 JLINK_Go() -- CPU_WriteMem(2 bytes @ 0x20000000) -- CPU_WriteMem(4 bytes @ 0xE0002008) -- CPU_WriteMem(4 bytes @ 0xE000200C) -- CPU_WriteMem(4 bytes @ 0xE0002010) -- CPU_WriteMem(4 bytes @ 0xE0002014) -- CPU_WriteMem(4 bytes @ 0xE0002018) -- CPU_WriteMem(4 bytes @ 0xE000201C) (0009ms, 1725ms total)
T1504 001:834 JLINK_IsHalted() -- CPU_ReadMem(2 bytes @ 0x20000000)  returns TRUE (0006ms, 1734ms total)
T1504 001:840 JLINK_ReadReg(R15)  returns 0x20000000 (0000ms, 1734ms total)
T1504 001:840 JLINK_ClrBPEx(BPHandle = 0x00000001)  returns 0x00 (0000ms, 1734ms total)
T1504 001:840 JLINK_ReadReg(R0)  returns 0x00000000 (0000ms, 1734ms total)
T1504 001:840 JLINK_WriteReg(R0, 0x08000000)  returns 0x00 (0000ms, 1734ms total)
T1504 001:840 JLINK_WriteReg(R1, 0x007A1200)  returns 0x00 (0000ms, 1734ms total)
T1504 001:840 JLINK_WriteReg(R2, 0x00000001)  returns 0x00 (0000ms, 1734ms total)
T1504 001:840 JLINK_WriteReg(R3, 0x00000000)  returns 0x00 (0000ms, 1734ms total)
T1504 001:840 JLINK_WriteReg(R4, 0x00000000)  returns 0x00 (0000ms, 1734ms total)
T1504 001:840 JLINK_WriteReg(R5, 0x00000000)  returns 0x00 (0000ms, 1734ms total)
T1504 001:840 JLINK_WriteReg(R6, 0x00000000)  returns 0x00 (0000ms, 1734ms total)
T1504 001:840 JLINK_WriteReg(R7, 0x00000000)  returns 0x00 (0000ms, 1734ms total)
T1504 001:840 JLINK_WriteReg(R8, 0x00000000)  returns 0x00 (0000ms, 1734ms total)
T1504 001:840 JLINK_WriteReg(R9, 0x20000160)  returns 0x00 (0000ms, 1734ms total)
T1504 001:840 JLINK_WriteReg(R10, 0x00000000)  returns 0x00 (0000ms, 1734ms total)
T1504 001:840 JLINK_WriteReg(R11, 0x00000000)  returns 0x00 (0000ms, 1734ms total)
T1504 001:840 JLINK_WriteReg(R12, 0x00000000)  returns 0x00 (0000ms, 1734ms total)
T1504 001:840 JLINK_WriteReg(R13, 0x20000800)  returns 0x00 (0000ms, 1734ms total)
T1504 001:840 JLINK_WriteReg(R14, 0x20000001)  returns 0x00 (0000ms, 1734ms total)
T1504 001:840 JLINK_WriteReg(R15, 0x2000007C)  returns 0x00 (0001ms, 1734ms total)
T1504 001:841 JLINK_WriteReg(XPSR, 0x01000000)  returns 0x00 (0000ms, 1735ms total)
T1504 001:841 JLINK_WriteReg(MSP, 0x20000800)  returns 0x00 (0000ms, 1735ms total)
T1504 001:841 JLINK_WriteReg(PSP, 0x20000800)  returns 0x00 (0000ms, 1735ms total)
T1504 001:841 JLINK_WriteReg(BASEPRI, 0x00000000)  returns 0x00 (0000ms, 1735ms total)
T1504 001:841 JLINK_WriteReg(CONTROL, 0x00000000)  returns 0x00 (0000ms, 1735ms total)
T1504 001:841 JLINK_WriteReg(FAULTMASK, 0x00000000)  returns 0x00 (0000ms, 1735ms total)
T1504 001:841 JLINK_WriteReg(BASEPRI_MAX, 0x00000000)  returns 0x00 (0000ms, 1735ms total)
T1504 001:841 JLINK_SetBPEx(Addr = 0x20000000, Type = 0xFFFFFFF2)  returns 0x00000002 (0000ms, 1735ms total)
T1504 001:841 JLINK_Go() -- CPU_WriteMem(4 bytes @ 0xE0002008) -- CPU_WriteMem(4 bytes @ 0xE000200C) -- CPU_WriteMem(4 bytes @ 0xE0002010) -- CPU_WriteMem(4 bytes @ 0xE0002014) -- CPU_WriteMem(4 bytes @ 0xE0002018) -- CPU_WriteMem(4 bytes @ 0xE000201C) (0007ms, 1735ms total)
T1504 001:848 JLINK_IsHalted()  returns FALSE (0001ms, 1742ms total)
T1504 001:899 JLINK_IsHalted() -- CPU_ReadMem(2 bytes @ 0x20000000)  returns TRUE (0005ms, 1742ms total)
T1504 001:904 JLINK_ReadReg(R15)  returns 0x20000000 (0000ms, 1742ms total)
T1504 001:904 JLINK_ClrBPEx(BPHandle = 0x00000002)  returns 0x00 (0000ms, 1742ms total)
T1504 001:904 JLINK_ReadReg(R0)  returns 0x00000000 (0000ms, 1742ms total)
T1504 001:956 JLINK_WriteReg(R0, 0x00000001)  returns 0x00 (0000ms, 1742ms total)
T1504 001:956 JLINK_WriteReg(R1, 0x007A1200)  returns 0x00 (0000ms, 1742ms total)
T1504 001:956 JLINK_WriteReg(R2, 0x00000001)  returns 0x00 (0000ms, 1742ms total)
T1504 001:956 JLINK_WriteReg(R3, 0x00000000)  returns 0x00 (0000ms, 1742ms total)
T1504 001:956 JLINK_WriteReg(R4, 0x00000000)  returns 0x00 (0000ms, 1742ms total)
T1504 001:956 JLINK_WriteReg(R5, 0x00000000)  returns 0x00 (0000ms, 1742ms total)
T1504 001:956 JLINK_WriteReg(R6, 0x00000000)  returns 0x00 (0000ms, 1742ms total)
T1504 001:956 JLINK_WriteReg(R7, 0x00000000)  returns 0x00 (0000ms, 1742ms total)
T1504 001:956 JLINK_WriteReg(R8, 0x00000000)  returns 0x00 (0000ms, 1742ms total)
T1504 001:956 JLINK_WriteReg(R9, 0x20000160)  returns 0x00 (0000ms, 1742ms total)
T1504 001:956 JLINK_WriteReg(R10, 0x00000000)  returns 0x00 (0000ms, 1742ms total)
T1504 001:956 JLINK_WriteReg(R11, 0x00000000)  returns 0x00 (0000ms, 1742ms total)
T1504 001:956 JLINK_WriteReg(R12, 0x00000000)  returns 0x00 (0000ms, 1742ms total)
T1504 001:956 JLINK_WriteReg(R13, 0x20000800)  returns 0x00 (0000ms, 1742ms total)
T1504 001:956 JLINK_WriteReg(R14, 0x20000001)  returns 0x00 (0000ms, 1742ms total)
T1504 001:956 JLINK_WriteReg(R15, 0x2000006A)  returns 0x00 (0000ms, 1742ms total)
T1504 001:956 JLINK_WriteReg(XPSR, 0x01000000)  returns 0x00 (0000ms, 1742ms total)
T1504 001:956 JLINK_WriteReg(MSP, 0x20000800)  returns 0x00 (0001ms, 1742ms total)
T1504 001:957 JLINK_WriteReg(PSP, 0x20000800)  returns 0x00 (0000ms, 1743ms total)
T1504 001:957 JLINK_WriteReg(BASEPRI, 0x00000000)  returns 0x00 (0000ms, 1743ms total)
T1504 001:957 JLINK_WriteReg(CONTROL, 0x00000000)  returns 0x00 (0000ms, 1743ms total)
T1504 001:957 JLINK_WriteReg(FAULTMASK, 0x00000000)  returns 0x00 (0000ms, 1743ms total)
T1504 001:957 JLINK_WriteReg(BASEPRI_MAX, 0x00000000)  returns 0x00 (0000ms, 1743ms total)
T1504 001:957 JLINK_SetBPEx(Addr = 0x20000000, Type = 0xFFFFFFF2)  returns 0x00000003 (0000ms, 1743ms total)
T1504 001:957 JLINK_Go() -- CPU_WriteMem(4 bytes @ 0xE0002008) -- CPU_WriteMem(4 bytes @ 0xE000200C) -- CPU_WriteMem(4 bytes @ 0xE0002010) -- CPU_WriteMem(4 bytes @ 0xE0002014) -- CPU_WriteMem(4 bytes @ 0xE0002018) -- CPU_WriteMem(4 bytes @ 0xE000201C) (0007ms, 1743ms total)
T1504 001:964 JLINK_IsHalted() -- CPU_ReadMem(2 bytes @ 0x20000000)  returns TRUE (0006ms, 1750ms total)
T1504 001:970 JLINK_ReadReg(R15)  returns 0x20000000 (0000ms, 1750ms total)
T1504 001:970 JLINK_ClrBPEx(BPHandle = 0x00000003)  returns 0x00 (0000ms, 1750ms total)
T1504 001:970 JLINK_ReadReg(R0)  returns 0x00000000 (0000ms, 1750ms total)
T1504 001:980 JLINK_WriteMem(0x20000000, 0x0164 Bytes, ...) -- Data:  00 BE 0A E0 0D 78 2D 06 68 40 08 24 40 00 00 D3 ... -- CPU_WriteMem(356 bytes @ 0x20000000)  returns 0x164 (0005ms, 1750ms total)
T1504 001:985 JLINK_WriteReg(R0, 0x08000000)  returns 0x00 (0000ms, 1755ms total)
T1504 001:985 JLINK_WriteReg(R1, 0x007A1200)  returns 0x00 (0000ms, 1755ms total)
T1504 001:985 JLINK_WriteReg(R2, 0x00000002)  returns 0x00 (0000ms, 1755ms total)
T1504 001:985 JLINK_WriteReg(R3, 0x00000000)  returns 0x00 (0000ms, 1755ms total)
T1504 001:985 JLINK_WriteReg(R4, 0x00000000)  returns 0x00 (0000ms, 1755ms total)
T1504 001:985 JLINK_WriteReg(R5, 0x00000000)  returns 0x00 (0000ms, 1755ms total)
T1504 001:985 JLINK_WriteReg(R6, 0x00000000)  returns 0x00 (0000ms, 1755ms total)
T1504 001:985 JLINK_WriteReg(R7, 0x00000000)  returns 0x00 (0000ms, 1755ms total)
T1504 001:985 JLINK_WriteReg(R8, 0x00000000)  returns 0x00 (0000ms, 1755ms total)
T1504 001:985 JLINK_WriteReg(R9, 0x20000160)  returns 0x00 (0000ms, 1755ms total)
T1504 001:985 JLINK_WriteReg(R10, 0x00000000)  returns 0x00 (0000ms, 1755ms total)
T1504 001:985 JLINK_WriteReg(R11, 0x00000000)  returns 0x00 (0000ms, 1755ms total)
T1504 001:985 JLINK_WriteReg(R12, 0x00000000)  returns 0x00 (0000ms, 1755ms total)
T1504 001:985 JLINK_WriteReg(R13, 0x20000800)  returns 0x00 (0000ms, 1755ms total)
T1504 001:985 JLINK_WriteReg(R14, 0x20000001)  returns 0x00 (0000ms, 1755ms total)
T1504 001:985 JLINK_WriteReg(R15, 0x20000038)  returns 0x00 (0000ms, 1755ms total)
T1504 001:985 JLINK_WriteReg(XPSR, 0x01000000)  returns 0x00 (0000ms, 1755ms total)
T1504 001:985 JLINK_WriteReg(MSP, 0x20000800)  returns 0x00 (0000ms, 1755ms total)
T1504 001:985 JLINK_WriteReg(PSP, 0x20000800)  returns 0x00 (0000ms, 1755ms total)
T1504 001:985 JLINK_WriteReg(BASEPRI, 0x00000000)  returns 0x00 (0000ms, 1755ms total)
T1504 001:985 JLINK_WriteReg(CONTROL, 0x00000000)  returns 0x00 (0000ms, 1755ms total)
T1504 001:985 JLINK_WriteReg(FAULTMASK, 0x00000000)  returns 0x00 (0000ms, 1755ms total)
T1504 001:985 JLINK_WriteReg(BASEPRI_MAX, 0x00000000)  returns 0x00 (0000ms, 1755ms total)
T1504 001:985 JLINK_SetBPEx(Addr = 0x20000000, Type = 0xFFFFFFF2) -- CPU_ReadMem(2 bytes @ 0x20000000)  returns 0x00000004 (0001ms, 1755ms total)
T1504 001:986 JLINK_Go() -- CPU_WriteMem(2 bytes @ 0x20000000) -- CPU_WriteMem(4 bytes @ 0xE0002008) -- CPU_WriteMem(4 bytes @ 0xE000200C) -- CPU_WriteMem(4 bytes @ 0xE0002010) -- CPU_WriteMem(4 bytes @ 0xE0002014) -- CPU_WriteMem(4 bytes @ 0xE0002018) -- CPU_WriteMem(4 bytes @ 0xE000201C) (0009ms, 1756ms total)
T1504 001:995 JLINK_IsHalted() -- CPU_ReadMem(2 bytes @ 0x20000000)  returns TRUE (0005ms, 1765ms total)
T1504 002:000 JLINK_ReadReg(R15)  returns 0x20000000 (0000ms, 1765ms total)
T1504 002:000 JLINK_ClrBPEx(BPHandle = 0x00000004)  returns 0x00 (0000ms, 1765ms total)
T1504 002:000 JLINK_ReadReg(R0)  returns 0x00000000 (0000ms, 1765ms total)
T1504 002:001 JLINK_WriteMem(0x20000164, 0x0400 Bytes, ...) -- Data:  58 1C 00 20 45 01 00 08 2D 3B 00 08 19 31 00 08 ... -- CPU_WriteMem(1024 bytes @ 0x20000164)  returns 0x400 (0011ms, 1765ms total)
T1504 002:012 JLINK_WriteReg(R0, 0x08000000)  returns 0x00 (0001ms, 1776ms total)
T1504 002:013 JLINK_WriteReg(R1, 0x00000400)  returns 0x00 (0000ms, 1777ms total)
T1504 002:013 JLINK_WriteReg(R2, 0x20000164)  returns 0x00 (0000ms, 1777ms total)
T1504 002:013 JLINK_WriteReg(R3, 0x00000000)  returns 0x00 (0000ms, 1777ms total)
T1504 002:013 JLINK_WriteReg(R4, 0x00000000)  returns 0x00 (0000ms, 1777ms total)
T1504 002:013 JLINK_WriteReg(R5, 0x00000000)  returns 0x00 (0000ms, 1777ms total)
T1504 002:013 JLINK_WriteReg(R6, 0x00000000)  returns 0x00 (0000ms, 1777ms total)
T1504 002:013 JLINK_WriteReg(R7, 0x00000000)  returns 0x00 (0000ms, 1777ms total)
T1504 002:013 JLINK_WriteReg(R8, 0x00000000)  returns 0x00 (0000ms, 1777ms total)
T1504 002:013 JLINK_WriteReg(R9, 0x20000160)  returns 0x00 (0000ms, 1777ms total)
T1504 002:013 JLINK_WriteReg(R10, 0x00000000)  returns 0x00 (0000ms, 1777ms total)
T1504 002:013 JLINK_WriteReg(R11, 0x00000000)  returns 0x00 (0000ms, 1777ms total)
T1504 002:013 JLINK_WriteReg(R12, 0x00000000)  returns 0x00 (0000ms, 1777ms total)
T1504 002:013 JLINK_WriteReg(R13, 0x20000800)  returns 0x00 (0000ms, 1777ms total)
T1504 002:013 JLINK_WriteReg(R14, 0x20000001)  returns 0x00 (0000ms, 1777ms total)
T1504 002:013 JLINK_WriteReg(R15, 0x200000F4)  returns 0x00 (0000ms, 1777ms total)
T1504 002:013 JLINK_WriteReg(XPSR, 0x01000000)  returns 0x00 (0000ms, 1777ms total)
T1504 002:013 JLINK_WriteReg(MSP, 0x20000800)  returns 0x00 (0000ms, 1777ms total)
T1504 002:013 JLINK_WriteReg(PSP, 0x20000800)  returns 0x00 (0000ms, 1777ms total)
T1504 002:013 JLINK_WriteReg(BASEPRI, 0x00000000)  returns 0x00 (0000ms, 1777ms total)
T1504 002:013 JLINK_WriteReg(CONTROL, 0x00000000)  returns 0x00 (0000ms, 1777ms total)
T1504 002:013 JLINK_WriteReg(FAULTMASK, 0x00000000)  returns 0x00 (0000ms, 1777ms total)
T1504 002:013 JLINK_WriteReg(BASEPRI_MAX, 0x00000000)  returns 0x00 (0000ms, 1777ms total)
T1504 002:013 JLINK_SetBPEx(Addr = 0x20000000, Type = 0xFFFFFFF2)  returns 0x00000005 (0000ms, 1777ms total)
T1504 002:013 JLINK_Go() -- CPU_WriteMem(4 bytes @ 0xE0002008) -- CPU_WriteMem(4 bytes @ 0xE000200C) -- CPU_WriteMem(4 bytes @ 0xE0002010) -- CPU_WriteMem(4 bytes @ 0xE0002014) -- CPU_WriteMem(4 bytes @ 0xE0002018) -- CPU_WriteMem(4 bytes @ 0xE000201C) (0008ms, 1777ms total)
T1504 002:021 JLINK_IsHalted()  returns FALSE (0001ms, 1785ms total)
T1504 002:072 JLINK_IsHalted() -- CPU_ReadMem(2 bytes @ 0x20000000)  returns TRUE (0005ms, 1785ms total)
T1504 002:077 JLINK_ReadReg(R15)  returns 0x20000000 (0000ms, 1785ms total)
T1504 002:077 JLINK_ClrBPEx(BPHandle = 0x00000005)  returns 0x00 (0000ms, 1785ms total)
T1504 002:077 JLINK_ReadReg(R0)  returns 0x00000000 (0000ms, 1785ms total)
T1504 002:078 JLINK_WriteMem(0x20000164, 0x0400 Bytes, ...) -- Data:  4F F0 01 01 01 E0 6F F0 01 01 04 EB C5 50 30 BC ... -- CPU_WriteMem(1024 bytes @ 0x20000164)  returns 0x400 (0012ms, 1785ms total)
T1504 002:090 JLINK_WriteReg(R0, 0x08000400)  returns 0x00 (0000ms, 1797ms total)
T1504 002:090 JLINK_WriteReg(R1, 0x00000400)  returns 0x00 (0000ms, 1797ms total)
T1504 002:090 JLINK_WriteReg(R2, 0x20000164)  returns 0x00 (0000ms, 1797ms total)
T1504 002:090 JLINK_WriteReg(R3, 0x00000000)  returns 0x00 (0000ms, 1797ms total)
T1504 002:090 JLINK_WriteReg(R4, 0x00000000)  returns 0x00 (0000ms, 1797ms total)
T1504 002:090 JLINK_WriteReg(R5, 0x00000000)  returns 0x00 (0000ms, 1797ms total)
T1504 002:090 JLINK_WriteReg(R6, 0x00000000)  returns 0x00 (0000ms, 1797ms total)
T1504 002:090 JLINK_WriteReg(R7, 0x00000000)  returns 0x00 (0000ms, 1797ms total)
T1504 002:090 JLINK_WriteReg(R8, 0x00000000)  returns 0x00 (0000ms, 1797ms total)
T1504 002:091 JLINK_WriteReg(R9, 0x20000160)  returns 0x00 (0000ms, 1797ms total)
T1504 002:091 JLINK_WriteReg(R10, 0x00000000)  returns 0x00 (0000ms, 1797ms total)
T1504 002:091 JLINK_WriteReg(R11, 0x00000000)  returns 0x00 (0000ms, 1797ms total)
T1504 002:091 JLINK_WriteReg(R12, 0x00000000)  returns 0x00 (0000ms, 1797ms total)
T1504 002:091 JLINK_WriteReg(R13, 0x20000800)  returns 0x00 (0000ms, 1797ms total)
T1504 002:091 JLINK_WriteReg(R14, 0x20000001)  returns 0x00 (0000ms, 1797ms total)
T1504 002:091 JLINK_WriteReg(R15, 0x200000F4)  returns 0x00 (0000ms, 1797ms total)
T1504 002:091 JLINK_WriteReg(XPSR, 0x01000000)  returns 0x00 (0000ms, 1797ms total)
T1504 002:091 JLINK_WriteReg(MSP, 0x20000800)  returns 0x00 (0000ms, 1797ms total)
T1504 002:091 JLINK_WriteReg(PSP, 0x20000800)  returns 0x00 (0000ms, 1797ms total)
T1504 002:091 JLINK_WriteReg(BASEPRI, 0x00000000)  returns 0x00 (0000ms, 1797ms total)
T1504 002:091 JLINK_WriteReg(CONTROL, 0x00000000)  returns 0x00 (0000ms, 1797ms total)
T1504 002:091 JLINK_WriteReg(FAULTMASK, 0x00000000)  returns 0x00 (0000ms, 1797ms total)
T1504 002:091 JLINK_WriteReg(BASEPRI_MAX, 0x00000000)  returns 0x00 (0000ms, 1797ms total)
T1504 002:091 JLINK_SetBPEx(Addr = 0x20000000, Type = 0xFFFFFFF2)  returns 0x00000006 (0000ms, 1797ms total)
T1504 002:091 JLINK_Go() -- CPU_WriteMem(4 bytes @ 0xE0002008) -- CPU_WriteMem(4 bytes @ 0xE000200C) -- CPU_WriteMem(4 bytes @ 0xE0002010) -- CPU_WriteMem(4 bytes @ 0xE0002014) -- CPU_WriteMem(4 bytes @ 0xE0002018) -- CPU_WriteMem(4 bytes @ 0xE000201C) (0008ms, 1797ms total)
T1504 002:099 JLINK_IsHalted()  returns FALSE (0001ms, 1805ms total)
T1504 002:150 JLINK_IsHalted() -- CPU_ReadMem(2 bytes @ 0x20000000)  returns TRUE (0005ms, 1805ms total)
T1504 002:155 JLINK_ReadReg(R15)  returns 0x20000000 (0000ms, 1805ms total)
T1504 002:155 JLINK_ClrBPEx(BPHandle = 0x00000006)  returns 0x00 (0000ms, 1805ms total)
T1504 002:155 JLINK_ReadReg(R0)  returns 0x00000000 (0000ms, 1805ms total)
T1504 002:156 JLINK_WriteMem(0x20000164, 0x0400 Bytes, ...) -- Data:  02 F3 D0 40 C2 F1 20 02 91 40 08 43 19 46 70 47 ... -- CPU_WriteMem(1024 bytes @ 0x20000164)  returns 0x400 (0012ms, 1805ms total)
T1504 002:168 JLINK_WriteReg(R0, 0x08000800)  returns 0x00 (0000ms, 1817ms total)
T1504 002:168 JLINK_WriteReg(R1, 0x00000400)  returns 0x00 (0000ms, 1817ms total)
T1504 002:168 JLINK_WriteReg(R2, 0x20000164)  returns 0x00 (0000ms, 1817ms total)
T1504 002:168 JLINK_WriteReg(R3, 0x00000000)  returns 0x00 (0000ms, 1817ms total)
T1504 002:168 JLINK_WriteReg(R4, 0x00000000)  returns 0x00 (0000ms, 1817ms total)
T1504 002:168 JLINK_WriteReg(R5, 0x00000000)  returns 0x00 (0000ms, 1817ms total)
T1504 002:168 JLINK_WriteReg(R6, 0x00000000)  returns 0x00 (0000ms, 1817ms total)
T1504 002:168 JLINK_WriteReg(R7, 0x00000000)  returns 0x00 (0000ms, 1817ms total)
T1504 002:168 JLINK_WriteReg(R8, 0x00000000)  returns 0x00 (0000ms, 1817ms total)
T1504 002:168 JLINK_WriteReg(R9, 0x20000160)  returns 0x00 (0000ms, 1817ms total)
T1504 002:168 JLINK_WriteReg(R10, 0x00000000)  returns 0x00 (0000ms, 1817ms total)
T1504 002:168 JLINK_WriteReg(R11, 0x00000000)  returns 0x00 (0000ms, 1817ms total)
T1504 002:168 JLINK_WriteReg(R12, 0x00000000)  returns 0x00 (0001ms, 1817ms total)
T1504 002:169 JLINK_WriteReg(R13, 0x20000800)  returns 0x00 (0000ms, 1818ms total)
T1504 002:169 JLINK_WriteReg(R14, 0x20000001)  returns 0x00 (0000ms, 1818ms total)
T1504 002:169 JLINK_WriteReg(R15, 0x200000F4)  returns 0x00 (0000ms, 1818ms total)
T1504 002:169 JLINK_WriteReg(XPSR, 0x01000000)  returns 0x00 (0000ms, 1818ms total)
T1504 002:169 JLINK_WriteReg(MSP, 0x20000800)  returns 0x00 (0000ms, 1818ms total)
T1504 002:169 JLINK_WriteReg(PSP, 0x20000800)  returns 0x00 (0000ms, 1818ms total)
T1504 002:169 JLINK_WriteReg(BASEPRI, 0x00000000)  returns 0x00 (0000ms, 1818ms total)
T1504 002:169 JLINK_WriteReg(CONTROL, 0x00000000)  returns 0x00 (0000ms, 1818ms total)
T1504 002:169 JLINK_WriteReg(FAULTMASK, 0x00000000)  returns 0x00 (0000ms, 1818ms total)
T1504 002:169 JLINK_WriteReg(BASEPRI_MAX, 0x00000000)  returns 0x00 (0000ms, 1818ms total)
T1504 002:169 JLINK_SetBPEx(Addr = 0x20000000, Type = 0xFFFFFFF2)  returns 0x00000007 (0000ms, 1818ms total)
T1504 002:169 JLINK_Go() -- CPU_WriteMem(4 bytes @ 0xE0002008) -- CPU_WriteMem(4 bytes @ 0xE000200C) -- CPU_WriteMem(4 bytes @ 0xE0002010) -- CPU_WriteMem(4 bytes @ 0xE0002014) -- CPU_WriteMem(4 bytes @ 0xE0002018) -- CPU_WriteMem(4 bytes @ 0xE000201C) (0008ms, 1818ms total)
T1504 002:177 JLINK_IsHalted()  returns FALSE (0001ms, 1826ms total)
T1504 002:228 JLINK_IsHalted() -- CPU_ReadMem(2 bytes @ 0x20000000)  returns TRUE (0005ms, 1826ms total)
T1504 002:233 JLINK_ReadReg(R15)  returns 0x20000000 (0000ms, 1826ms total)
T1504 002:233 JLINK_ClrBPEx(BPHandle = 0x00000007)  returns 0x00 (0000ms, 1826ms total)
T1504 002:233 JLINK_ReadReg(R0)  returns 0x00000000 (0000ms, 1826ms total)
T1504 002:234 JLINK_WriteMem(0x20000164, 0x0400 Bytes, ...) -- Data:  D2 D3 4F F0 00 04 0E E0 4F F0 00 00 0A A9 41 F8 ... -- CPU_WriteMem(1024 bytes @ 0x20000164)  returns 0x400 (0012ms, 1826ms total)
T1504 002:246 JLINK_WriteReg(R0, 0x08000C00)  returns 0x00 (0000ms, 1838ms total)
T1504 002:246 JLINK_WriteReg(R1, 0x00000400)  returns 0x00 (0000ms, 1838ms total)
T1504 002:246 JLINK_WriteReg(R2, 0x20000164)  returns 0x00 (0000ms, 1838ms total)
T1504 002:246 JLINK_WriteReg(R3, 0x00000000)  returns 0x00 (0000ms, 1838ms total)
T1504 002:246 JLINK_WriteReg(R4, 0x00000000)  returns 0x00 (0000ms, 1838ms total)
T1504 002:246 JLINK_WriteReg(R5, 0x00000000)  returns 0x00 (0000ms, 1838ms total)
T1504 002:246 JLINK_WriteReg(R6, 0x00000000)  returns 0x00 (0000ms, 1838ms total)
T1504 002:246 JLINK_WriteReg(R7, 0x00000000)  returns 0x00 (0000ms, 1838ms total)
T1504 002:246 JLINK_WriteReg(R8, 0x00000000)  returns 0x00 (0000ms, 1838ms total)
T1504 002:246 JLINK_WriteReg(R9, 0x20000160)  returns 0x00 (0000ms, 1838ms total)
T1504 002:246 JLINK_WriteReg(R10, 0x00000000)  returns 0x00 (0000ms, 1838ms total)
T1504 002:246 JLINK_WriteReg(R11, 0x00000000)  returns 0x00 (0000ms, 1838ms total)
T1504 002:246 JLINK_WriteReg(R12, 0x00000000)  returns 0x00 (0000ms, 1838ms total)
T1504 002:246 JLINK_WriteReg(R13, 0x20000800)  returns 0x00 (0000ms, 1838ms total)
T1504 002:246 JLINK_WriteReg(R14, 0x20000001)  returns 0x00 (0000ms, 1838ms total)
T1504 002:246 JLINK_WriteReg(R15, 0x200000F4)  returns 0x00 (0000ms, 1838ms total)
T1504 002:246 JLINK_WriteReg(XPSR, 0x01000000)  returns 0x00 (0000ms, 1838ms total)
T1504 002:246 JLINK_WriteReg(MSP, 0x20000800)  returns 0x00 (0000ms, 1838ms total)
T1504 002:246 JLINK_WriteReg(PSP, 0x20000800)  returns 0x00 (0000ms, 1838ms total)
T1504 002:246 JLINK_WriteReg(BASEPRI, 0x00000000)  returns 0x00 (0000ms, 1838ms total)
T1504 002:246 JLINK_WriteReg(CONTROL, 0x00000000)  returns 0x00 (0000ms, 1838ms total)
T1504 002:246 JLINK_WriteReg(FAULTMASK, 0x00000000)  returns 0x00 (0000ms, 1838ms total)
T1504 002:246 JLINK_WriteReg(BASEPRI_MAX, 0x00000000)  returns 0x00 (0000ms, 1838ms total)
T1504 002:246 JLINK_SetBPEx(Addr = 0x20000000, Type = 0xFFFFFFF2)  returns 0x00000008 (0000ms, 1838ms total)
T1504 002:246 JLINK_Go() -- CPU_WriteMem(4 bytes @ 0xE0002008) -- CPU_WriteMem(4 bytes @ 0xE000200C) -- CPU_WriteMem(4 bytes @ 0xE0002010) -- CPU_WriteMem(4 bytes @ 0xE0002014) -- CPU_WriteMem(4 bytes @ 0xE0002018) -- CPU_WriteMem(4 bytes @ 0xE000201C) (0008ms, 1838ms total)
T1504 002:254 JLINK_IsHalted()  returns FALSE (0001ms, 1846ms total)
T1504 002:305 JLINK_IsHalted() -- CPU_ReadMem(2 bytes @ 0x20000000)  returns TRUE (0005ms, 1846ms total)
T1504 002:310 JLINK_ReadReg(R15)  returns 0x20000000 (0000ms, 1846ms total)
T1504 002:310 JLINK_ClrBPEx(BPHandle = 0x00000008)  returns 0x00 (0000ms, 1846ms total)
T1504 002:310 JLINK_ReadReg(R0)  returns 0x00000000 (0000ms, 1846ms total)
T1504 002:312 JLINK_WriteMem(0x20000164, 0x0400 Bytes, ...) -- Data:  E2 E7 D1 F8 04 04 40 F4 70 60 DD E7 D1 F8 04 04 ... -- CPU_WriteMem(1024 bytes @ 0x20000164)  returns 0x400 (0012ms, 1846ms total)
T1504 002:324 JLINK_WriteReg(R0, 0x08001000)  returns 0x00 (0000ms, 1858ms total)
T1504 002:324 JLINK_WriteReg(R1, 0x00000400)  returns 0x00 (0000ms, 1858ms total)
T1504 002:324 JLINK_WriteReg(R2, 0x20000164)  returns 0x00 (0000ms, 1858ms total)
T1504 002:324 JLINK_WriteReg(R3, 0x00000000)  returns 0x00 (0000ms, 1858ms total)
T1504 002:324 JLINK_WriteReg(R4, 0x00000000)  returns 0x00 (0000ms, 1858ms total)
T1504 002:324 JLINK_WriteReg(R5, 0x00000000)  returns 0x00 (0000ms, 1858ms total)
T1504 002:324 JLINK_WriteReg(R6, 0x00000000)  returns 0x00 (0000ms, 1858ms total)
T1504 002:324 JLINK_WriteReg(R7, 0x00000000)  returns 0x00 (0000ms, 1858ms total)
T1504 002:324 JLINK_WriteReg(R8, 0x00000000)  returns 0x00 (0000ms, 1858ms total)
T1504 002:324 JLINK_WriteReg(R9, 0x20000160)  returns 0x00 (0000ms, 1858ms total)
T1504 002:325 JLINK_WriteReg(R10, 0x00000000)  returns 0x00 (0000ms, 1858ms total)
T1504 002:325 JLINK_WriteReg(R11, 0x00000000)  returns 0x00 (0000ms, 1858ms total)
T1504 002:325 JLINK_WriteReg(R12, 0x00000000)  returns 0x00 (0000ms, 1858ms total)
T1504 002:325 JLINK_WriteReg(R13, 0x20000800)  returns 0x00 (0000ms, 1858ms total)
T1504 002:325 JLINK_WriteReg(R14, 0x20000001)  returns 0x00 (0000ms, 1858ms total)
T1504 002:325 JLINK_WriteReg(R15, 0x200000F4)  returns 0x00 (0000ms, 1858ms total)
T1504 002:325 JLINK_WriteReg(XPSR, 0x01000000)  returns 0x00 (0000ms, 1858ms total)
T1504 002:325 JLINK_WriteReg(MSP, 0x20000800)  returns 0x00 (0000ms, 1858ms total)
T1504 002:325 JLINK_WriteReg(PSP, 0x20000800)  returns 0x00 (0000ms, 1858ms total)
T1504 002:325 JLINK_WriteReg(BASEPRI, 0x00000000)  returns 0x00 (0000ms, 1858ms total)
T1504 002:325 JLINK_WriteReg(CONTROL, 0x00000000)  returns 0x00 (0000ms, 1858ms total)
T1504 002:325 JLINK_WriteReg(FAULTMASK, 0x00000000)  returns 0x00 (0000ms, 1858ms total)
T1504 002:325 JLINK_WriteReg(BASEPRI_MAX, 0x00000000)  returns 0x00 (0000ms, 1858ms total)
T1504 002:325 JLINK_SetBPEx(Addr = 0x20000000, Type = 0xFFFFFFF2)  returns 0x00000009 (0000ms, 1858ms total)
T1504 002:325 JLINK_Go() -- CPU_WriteMem(4 bytes @ 0xE0002008) -- CPU_WriteMem(4 bytes @ 0xE000200C) -- CPU_WriteMem(4 bytes @ 0xE0002010) -- CPU_WriteMem(4 bytes @ 0xE0002014) -- CPU_WriteMem(4 bytes @ 0xE0002018) -- CPU_WriteMem(4 bytes @ 0xE000201C) (0009ms, 1858ms total)
T1504 002:334 JLINK_IsHalted()  returns FALSE (0001ms, 1867ms total)
T1504 002:385 JLINK_IsHalted() -- CPU_ReadMem(2 bytes @ 0x20000000)  returns TRUE (0005ms, 1867ms total)
T1504 002:390 JLINK_ReadReg(R15)  returns 0x20000000 (0000ms, 1867ms total)
T1504 002:390 JLINK_ClrBPEx(BPHandle = 0x00000009)  returns 0x00 (0000ms, 1867ms total)
T1504 002:390 JLINK_ReadReg(R0)  returns 0x00000000 (0000ms, 1867ms total)
T1504 002:391 JLINK_WriteMem(0x20000164, 0x0400 Bytes, ...) -- Data:  80 50 AD F8 00 00 4F F0 48 00 8D F8 03 00 4F F0 ... -- CPU_WriteMem(1024 bytes @ 0x20000164)  returns 0x400 (0012ms, 1867ms total)
T1504 002:403 JLINK_WriteReg(R0, 0x08001400)  returns 0x00 (0000ms, 1879ms total)
T1504 002:403 JLINK_WriteReg(R1, 0x00000400)  returns 0x00 (0000ms, 1879ms total)
T1504 002:403 JLINK_WriteReg(R2, 0x20000164)  returns 0x00 (0000ms, 1879ms total)
T1504 002:403 JLINK_WriteReg(R3, 0x00000000)  returns 0x00 (0000ms, 1879ms total)
T1504 002:403 JLINK_WriteReg(R4, 0x00000000)  returns 0x00 (0000ms, 1879ms total)
T1504 002:403 JLINK_WriteReg(R5, 0x00000000)  returns 0x00 (0000ms, 1879ms total)
T1504 002:403 JLINK_WriteReg(R6, 0x00000000)  returns 0x00 (0000ms, 1879ms total)
T1504 002:403 JLINK_WriteReg(R7, 0x00000000)  returns 0x00 (0000ms, 1879ms total)
T1504 002:403 JLINK_WriteReg(R8, 0x00000000)  returns 0x00 (0000ms, 1879ms total)
T1504 002:403 JLINK_WriteReg(R9, 0x20000160)  returns 0x00 (0000ms, 1879ms total)
T1504 002:403 JLINK_WriteReg(R10, 0x00000000)  returns 0x00 (0000ms, 1879ms total)
T1504 002:403 JLINK_WriteReg(R11, 0x00000000)  returns 0x00 (0000ms, 1879ms total)
T1504 002:403 JLINK_WriteReg(R12, 0x00000000)  returns 0x00 (0000ms, 1879ms total)
T1504 002:403 JLINK_WriteReg(R13, 0x20000800)  returns 0x00 (0000ms, 1879ms total)
T1504 002:403 JLINK_WriteReg(R14, 0x20000001)  returns 0x00 (0000ms, 1879ms total)
T1504 002:403 JLINK_WriteReg(R15, 0x200000F4)  returns 0x00 (0000ms, 1879ms total)
T1504 002:403 JLINK_WriteReg(XPSR, 0x01000000)  returns 0x00 (0000ms, 1879ms total)
T1504 002:403 JLINK_WriteReg(MSP, 0x20000800)  returns 0x00 (0000ms, 1879ms total)
T1504 002:403 JLINK_WriteReg(PSP, 0x20000800)  returns 0x00 (0000ms, 1879ms total)
T1504 002:403 JLINK_WriteReg(BASEPRI, 0x00000000)  returns 0x00 (0000ms, 1879ms total)
T1504 002:403 JLINK_WriteReg(CONTROL, 0x00000000)  returns 0x00 (0000ms, 1879ms total)
T1504 002:403 JLINK_WriteReg(FAULTMASK, 0x00000000)  returns 0x00 (0000ms, 1879ms total)
T1504 002:403 JLINK_WriteReg(BASEPRI_MAX, 0x00000000)  returns 0x00 (0001ms, 1879ms total)
T1504 002:404 JLINK_SetBPEx(Addr = 0x20000000, Type = 0xFFFFFFF2)  returns 0x0000000A (0000ms, 1880ms total)
T1504 002:404 JLINK_Go() -- CPU_WriteMem(4 bytes @ 0xE0002008) -- CPU_WriteMem(4 bytes @ 0xE000200C) -- CPU_WriteMem(4 bytes @ 0xE0002010) -- CPU_WriteMem(4 bytes @ 0xE0002014) -- CPU_WriteMem(4 bytes @ 0xE0002018) -- CPU_WriteMem(4 bytes @ 0xE000201C) (0008ms, 1880ms total)
T1504 002:412 JLINK_IsHalted()  returns FALSE (0001ms, 1888ms total)
T1504 002:463 JLINK_IsHalted() -- CPU_ReadMem(2 bytes @ 0x20000000)  returns TRUE (0005ms, 1888ms total)
T1504 002:468 JLINK_ReadReg(R15)  returns 0x20000000 (0000ms, 1888ms total)
T1504 002:468 JLINK_ClrBPEx(BPHandle = 0x0000000A)  returns 0x00 (0000ms, 1888ms total)
T1504 002:468 JLINK_ReadReg(R0)  returns 0x00000000 (0000ms, 1888ms total)
T1504 002:469 JLINK_WriteMem(0x20000164, 0x0400 Bytes, ...) -- Data:  52 E7 41 48 80 78 00 F1 05 04 B4 F5 80 7F 07 DD ... -- CPU_WriteMem(1024 bytes @ 0x20000164)  returns 0x400 (0012ms, 1888ms total)
T1504 002:481 JLINK_WriteReg(R0, 0x08001800)  returns 0x00 (0000ms, 1900ms total)
T1504 002:481 JLINK_WriteReg(R1, 0x00000400)  returns 0x00 (0000ms, 1900ms total)
T1504 002:481 JLINK_WriteReg(R2, 0x20000164)  returns 0x00 (0000ms, 1900ms total)
T1504 002:481 JLINK_WriteReg(R3, 0x00000000)  returns 0x00 (0000ms, 1900ms total)
T1504 002:481 JLINK_WriteReg(R4, 0x00000000)  returns 0x00 (0000ms, 1900ms total)
T1504 002:481 JLINK_WriteReg(R5, 0x00000000)  returns 0x00 (0000ms, 1900ms total)
T1504 002:481 JLINK_WriteReg(R6, 0x00000000)  returns 0x00 (0000ms, 1900ms total)
T1504 002:481 JLINK_WriteReg(R7, 0x00000000)  returns 0x00 (0000ms, 1900ms total)
T1504 002:481 JLINK_WriteReg(R8, 0x00000000)  returns 0x00 (0000ms, 1900ms total)
T1504 002:481 JLINK_WriteReg(R9, 0x20000160)  returns 0x00 (0000ms, 1900ms total)
T1504 002:481 JLINK_WriteReg(R10, 0x00000000)  returns 0x00 (0000ms, 1900ms total)
T1504 002:481 JLINK_WriteReg(R11, 0x00000000)  returns 0x00 (0000ms, 1900ms total)
T1504 002:481 JLINK_WriteReg(R12, 0x00000000)  returns 0x00 (0000ms, 1900ms total)
T1504 002:481 JLINK_WriteReg(R13, 0x20000800)  returns 0x00 (0000ms, 1900ms total)
T1504 002:481 JLINK_WriteReg(R14, 0x20000001)  returns 0x00 (0000ms, 1900ms total)
T1504 002:482 JLINK_WriteReg(R15, 0x200000F4)  returns 0x00 (0000ms, 1901ms total)
T1504 002:482 JLINK_WriteReg(XPSR, 0x01000000)  returns 0x00 (0000ms, 1901ms total)
T1504 002:482 JLINK_WriteReg(MSP, 0x20000800)  returns 0x00 (0000ms, 1901ms total)
T1504 002:482 JLINK_WriteReg(PSP, 0x20000800)  returns 0x00 (0000ms, 1901ms total)
T1504 002:482 JLINK_WriteReg(BASEPRI, 0x00000000)  returns 0x00 (0000ms, 1901ms total)
T1504 002:482 JLINK_WriteReg(CONTROL, 0x00000000)  returns 0x00 (0000ms, 1901ms total)
T1504 002:482 JLINK_WriteReg(FAULTMASK, 0x00000000)  returns 0x00 (0000ms, 1901ms total)
T1504 002:482 JLINK_WriteReg(BASEPRI_MAX, 0x00000000)  returns 0x00 (0000ms, 1901ms total)
T1504 002:482 JLINK_SetBPEx(Addr = 0x20000000, Type = 0xFFFFFFF2)  returns 0x0000000B (0000ms, 1901ms total)
T1504 002:482 JLINK_Go() -- CPU_WriteMem(4 bytes @ 0xE0002008) -- CPU_WriteMem(4 bytes @ 0xE000200C) -- CPU_WriteMem(4 bytes @ 0xE0002010) -- CPU_WriteMem(4 bytes @ 0xE0002014) -- CPU_WriteMem(4 bytes @ 0xE0002018) -- CPU_WriteMem(4 bytes @ 0xE000201C) (0008ms, 1901ms total)
T1504 002:490 JLINK_IsHalted()  returns FALSE (0001ms, 1909ms total)
T1504 002:541 JLINK_IsHalted() -- CPU_ReadMem(2 bytes @ 0x20000000)  returns TRUE (0005ms, 1909ms total)
T1504 002:546 JLINK_ReadReg(R15)  returns 0x20000000 (0000ms, 1909ms total)
T1504 002:546 JLINK_ClrBPEx(BPHandle = 0x0000000B)  returns 0x00 (0000ms, 1909ms total)
T1504 002:546 JLINK_ReadReg(R0)  returns 0x00000000 (0000ms, 1909ms total)
T1504 002:547 JLINK_WriteMem(0x20000164, 0x0400 Bytes, ...) -- Data:  4F F0 01 00 49 49 08 70 4F F0 00 00 48 49 08 70 ... -- CPU_WriteMem(1024 bytes @ 0x20000164)  returns 0x400 (0012ms, 1909ms total)
T1504 002:559 JLINK_WriteReg(R0, 0x08001C00)  returns 0x00 (0000ms, 1921ms total)
T1504 002:559 JLINK_WriteReg(R1, 0x00000400)  returns 0x00 (0000ms, 1921ms total)
T1504 002:559 JLINK_WriteReg(R2, 0x20000164)  returns 0x00 (0000ms, 1921ms total)
T1504 002:559 JLINK_WriteReg(R3, 0x00000000)  returns 0x00 (0000ms, 1921ms total)
T1504 002:559 JLINK_WriteReg(R4, 0x00000000)  returns 0x00 (0000ms, 1921ms total)
T1504 002:559 JLINK_WriteReg(R5, 0x00000000)  returns 0x00 (0000ms, 1921ms total)
T1504 002:559 JLINK_WriteReg(R6, 0x00000000)  returns 0x00 (0000ms, 1921ms total)
T1504 002:559 JLINK_WriteReg(R7, 0x00000000)  returns 0x00 (0000ms, 1921ms total)
T1504 002:559 JLINK_WriteReg(R8, 0x00000000)  returns 0x00 (0000ms, 1921ms total)
T1504 002:559 JLINK_WriteReg(R9, 0x20000160)  returns 0x00 (0000ms, 1921ms total)
T1504 002:559 JLINK_WriteReg(R10, 0x00000000)  returns 0x00 (0000ms, 1921ms total)
T1504 002:559 JLINK_WriteReg(R11, 0x00000000)  returns 0x00 (0000ms, 1921ms total)
T1504 002:559 JLINK_WriteReg(R12, 0x00000000)  returns 0x00 (0000ms, 1921ms total)
T1504 002:559 JLINK_WriteReg(R13, 0x20000800)  returns 0x00 (0000ms, 1921ms total)
T1504 002:559 JLINK_WriteReg(R14, 0x20000001)  returns 0x00 (0001ms, 1921ms total)
T1504 002:560 JLINK_WriteReg(R15, 0x200000F4)  returns 0x00 (0000ms, 1922ms total)
T1504 002:560 JLINK_WriteReg(XPSR, 0x01000000)  returns 0x00 (0000ms, 1922ms total)
T1504 002:560 JLINK_WriteReg(MSP, 0x20000800)  returns 0x00 (0000ms, 1922ms total)
T1504 002:560 JLINK_WriteReg(PSP, 0x20000800)  returns 0x00 (0000ms, 1922ms total)
T1504 002:560 JLINK_WriteReg(BASEPRI, 0x00000000)  returns 0x00 (0000ms, 1922ms total)
T1504 002:560 JLINK_WriteReg(CONTROL, 0x00000000)  returns 0x00 (0000ms, 1922ms total)
T1504 002:560 JLINK_WriteReg(FAULTMASK, 0x00000000)  returns 0x00 (0000ms, 1922ms total)
T1504 002:560 JLINK_WriteReg(BASEPRI_MAX, 0x00000000)  returns 0x00 (0000ms, 1922ms total)
T1504 002:560 JLINK_SetBPEx(Addr = 0x20000000, Type = 0xFFFFFFF2)  returns 0x0000000C (0000ms, 1922ms total)
T1504 002:560 JLINK_Go() -- CPU_WriteMem(4 bytes @ 0xE0002008) -- CPU_WriteMem(4 bytes @ 0xE000200C) -- CPU_WriteMem(4 bytes @ 0xE0002010) -- CPU_WriteMem(4 bytes @ 0xE0002014) -- CPU_WriteMem(4 bytes @ 0xE0002018) -- CPU_WriteMem(4 bytes @ 0xE000201C) (0008ms, 1922ms total)
T1504 002:568 JLINK_IsHalted()  returns FALSE (0001ms, 1930ms total)
T1504 002:619 JLINK_IsHalted() -- CPU_ReadMem(2 bytes @ 0x20000000)  returns TRUE (0005ms, 1930ms total)
T1504 002:624 JLINK_ReadReg(R15)  returns 0x20000000 (0000ms, 1930ms total)
T1504 002:624 JLINK_ClrBPEx(BPHandle = 0x0000000C)  returns 0x00 (0000ms, 1930ms total)
T1504 002:624 JLINK_ReadReg(R0)  returns 0x00000000 (0000ms, 1930ms total)
T1504 002:626 JLINK_WriteMem(0x20000164, 0x0400 Bytes, ...) -- Data:  04 F0 E6 FF 52 48 00 68 A0 F1 01 00 50 49 08 60 ... -- CPU_WriteMem(1024 bytes @ 0x20000164)  returns 0x400 (0011ms, 1930ms total)
T1504 002:637 JLINK_WriteReg(R0, 0x08002000)  returns 0x00 (0000ms, 1941ms total)
T1504 002:637 JLINK_WriteReg(R1, 0x00000400)  returns 0x00 (0000ms, 1941ms total)
T1504 002:637 JLINK_WriteReg(R2, 0x20000164)  returns 0x00 (0000ms, 1941ms total)
T1504 002:637 JLINK_WriteReg(R3, 0x00000000)  returns 0x00 (0000ms, 1941ms total)
T1504 002:637 JLINK_WriteReg(R4, 0x00000000)  returns 0x00 (0000ms, 1941ms total)
T1504 002:637 JLINK_WriteReg(R5, 0x00000000)  returns 0x00 (0000ms, 1941ms total)
T1504 002:637 JLINK_WriteReg(R6, 0x00000000)  returns 0x00 (0000ms, 1941ms total)
T1504 002:637 JLINK_WriteReg(R7, 0x00000000)  returns 0x00 (0001ms, 1941ms total)
T1504 002:638 JLINK_WriteReg(R8, 0x00000000)  returns 0x00 (0000ms, 1942ms total)
T1504 002:638 JLINK_WriteReg(R9, 0x20000160)  returns 0x00 (0000ms, 1942ms total)
T1504 002:638 JLINK_WriteReg(R10, 0x00000000)  returns 0x00 (0000ms, 1942ms total)
T1504 002:638 JLINK_WriteReg(R11, 0x00000000)  returns 0x00 (0000ms, 1942ms total)
T1504 002:638 JLINK_WriteReg(R12, 0x00000000)  returns 0x00 (0000ms, 1942ms total)
T1504 002:638 JLINK_WriteReg(R13, 0x20000800)  returns 0x00 (0000ms, 1942ms total)
T1504 002:638 JLINK_WriteReg(R14, 0x20000001)  returns 0x00 (0000ms, 1942ms total)
T1504 002:638 JLINK_WriteReg(R15, 0x200000F4)  returns 0x00 (0000ms, 1942ms total)
T1504 002:638 JLINK_WriteReg(XPSR, 0x01000000)  returns 0x00 (0000ms, 1942ms total)
T1504 002:638 JLINK_WriteReg(MSP, 0x20000800)  returns 0x00 (0000ms, 1942ms total)
T1504 002:638 JLINK_WriteReg(PSP, 0x20000800)  returns 0x00 (0000ms, 1942ms total)
T1504 002:638 JLINK_WriteReg(BASEPRI, 0x00000000)  returns 0x00 (0000ms, 1942ms total)
T1504 002:638 JLINK_WriteReg(CONTROL, 0x00000000)  returns 0x00 (0000ms, 1942ms total)
T1504 002:638 JLINK_WriteReg(FAULTMASK, 0x00000000)  returns 0x00 (0000ms, 1942ms total)
T1504 002:638 JLINK_WriteReg(BASEPRI_MAX, 0x00000000)  returns 0x00 (0000ms, 1942ms total)
T1504 002:638 JLINK_SetBPEx(Addr = 0x20000000, Type = 0xFFFFFFF2)  returns 0x0000000D (0000ms, 1942ms total)
T1504 002:638 JLINK_Go() -- CPU_WriteMem(4 bytes @ 0xE0002008) -- CPU_WriteMem(4 bytes @ 0xE000200C) -- CPU_WriteMem(4 bytes @ 0xE0002010) -- CPU_WriteMem(4 bytes @ 0xE0002014) -- CPU_WriteMem(4 bytes @ 0xE0002018) -- CPU_WriteMem(4 bytes @ 0xE000201C) (0008ms, 1942ms total)
T1504 002:646 JLINK_IsHalted()  returns FALSE (0002ms, 1950ms total)
T1504 002:698 JLINK_IsHalted() -- CPU_ReadMem(2 bytes @ 0x20000000)  returns TRUE (0005ms, 1950ms total)
T1504 002:703 JLINK_ReadReg(R15)  returns 0x20000000 (0000ms, 1950ms total)
T1504 002:703 JLINK_ClrBPEx(BPHandle = 0x0000000D)  returns 0x00 (0000ms, 1950ms total)
T1504 002:703 JLINK_ReadReg(R0)  returns 0x00000000 (0000ms, 1950ms total)
T1504 002:705 JLINK_WriteMem(0x20000164, 0x0400 Bytes, ...) -- Data:  02 2C F4 DB 4F F0 00 04 08 E0 65 48 01 5D 04 F1 ... -- CPU_WriteMem(1024 bytes @ 0x20000164)  returns 0x400 (0011ms, 1950ms total)
T1504 002:716 JLINK_WriteReg(R0, 0x08002400)  returns 0x00 (0001ms, 1961ms total)
T1504 002:717 JLINK_WriteReg(R1, 0x00000400)  returns 0x00 (0000ms, 1962ms total)
T1504 002:717 JLINK_WriteReg(R2, 0x20000164)  returns 0x00 (0000ms, 1962ms total)
T1504 002:717 JLINK_WriteReg(R3, 0x00000000)  returns 0x00 (0000ms, 1962ms total)
T1504 002:717 JLINK_WriteReg(R4, 0x00000000)  returns 0x00 (0000ms, 1962ms total)
T1504 002:717 JLINK_WriteReg(R5, 0x00000000)  returns 0x00 (0000ms, 1962ms total)
T1504 002:717 JLINK_WriteReg(R6, 0x00000000)  returns 0x00 (0000ms, 1962ms total)
T1504 002:717 JLINK_WriteReg(R7, 0x00000000)  returns 0x00 (0000ms, 1962ms total)
T1504 002:717 JLINK_WriteReg(R8, 0x00000000)  returns 0x00 (0000ms, 1962ms total)
T1504 002:717 JLINK_WriteReg(R9, 0x20000160)  returns 0x00 (0000ms, 1962ms total)
T1504 002:717 JLINK_WriteReg(R10, 0x00000000)  returns 0x00 (0000ms, 1962ms total)
T1504 002:717 JLINK_WriteReg(R11, 0x00000000)  returns 0x00 (0000ms, 1962ms total)
T1504 002:717 JLINK_WriteReg(R12, 0x00000000)  returns 0x00 (0000ms, 1962ms total)
T1504 002:717 JLINK_WriteReg(R13, 0x20000800)  returns 0x00 (0000ms, 1962ms total)
T1504 002:717 JLINK_WriteReg(R14, 0x20000001)  returns 0x00 (0000ms, 1962ms total)
T1504 002:717 JLINK_WriteReg(R15, 0x200000F4)  returns 0x00 (0000ms, 1962ms total)
T1504 002:717 JLINK_WriteReg(XPSR, 0x01000000)  returns 0x00 (0000ms, 1962ms total)
T1504 002:717 JLINK_WriteReg(MSP, 0x20000800)  returns 0x00 (0000ms, 1962ms total)
T1504 002:717 JLINK_WriteReg(PSP, 0x20000800)  returns 0x00 (0000ms, 1962ms total)
T1504 002:717 JLINK_WriteReg(BASEPRI, 0x00000000)  returns 0x00 (0000ms, 1962ms total)
T1504 002:717 JLINK_WriteReg(CONTROL, 0x00000000)  returns 0x00 (0000ms, 1962ms total)
T1504 002:717 JLINK_WriteReg(FAULTMASK, 0x00000000)  returns 0x00 (0000ms, 1962ms total)
T1504 002:717 JLINK_WriteReg(BASEPRI_MAX, 0x00000000)  returns 0x00 (0000ms, 1962ms total)
T1504 002:717 JLINK_SetBPEx(Addr = 0x20000000, Type = 0xFFFFFFF2)  returns 0x0000000E (0000ms, 1962ms total)
T1504 002:717 JLINK_Go() -- CPU_WriteMem(4 bytes @ 0xE0002008) -- CPU_WriteMem(4 bytes @ 0xE000200C) -- CPU_WriteMem(4 bytes @ 0xE0002010) -- CPU_WriteMem(4 bytes @ 0xE0002014) -- CPU_WriteMem(4 bytes @ 0xE0002018) -- CPU_WriteMem(4 bytes @ 0xE000201C) (0008ms, 1962ms total)
T1504 002:725 JLINK_IsHalted()  returns FALSE (0001ms, 1970ms total)
T1504 002:776 JLINK_IsHalted() -- CPU_ReadMem(2 bytes @ 0x20000000)  returns TRUE (0005ms, 1970ms total)
T1504 002:781 JLINK_ReadReg(R15)  returns 0x20000000 (0000ms, 1970ms total)
T1504 002:781 JLINK_ClrBPEx(BPHandle = 0x0000000E)  returns 0x00 (0000ms, 1970ms total)
T1504 002:781 JLINK_ReadReg(R0)  returns 0x00000000 (0000ms, 1970ms total)
T1504 002:782 JLINK_WriteMem(0x20000164, 0x0400 Bytes, ...) -- Data:  00 78 01 28 12 D1 53 48 00 78 78 B9 4C 48 00 88 ... -- CPU_WriteMem(1024 bytes @ 0x20000164)  returns 0x400 (0012ms, 1970ms total)
T1504 002:794 JLINK_WriteReg(R0, 0x08002800)  returns 0x00 (0000ms, 1982ms total)
T1504 002:794 JLINK_WriteReg(R1, 0x00000400)  returns 0x00 (0000ms, 1982ms total)
T1504 002:794 JLINK_WriteReg(R2, 0x20000164)  returns 0x00 (0000ms, 1982ms total)
T1504 002:794 JLINK_WriteReg(R3, 0x00000000)  returns 0x00 (0000ms, 1982ms total)
T1504 002:794 JLINK_WriteReg(R4, 0x00000000)  returns 0x00 (0000ms, 1982ms total)
T1504 002:794 JLINK_WriteReg(R5, 0x00000000)  returns 0x00 (0000ms, 1982ms total)
T1504 002:794 JLINK_WriteReg(R6, 0x00000000)  returns 0x00 (0000ms, 1982ms total)
T1504 002:794 JLINK_WriteReg(R7, 0x00000000)  returns 0x00 (0000ms, 1982ms total)
T1504 002:794 JLINK_WriteReg(R8, 0x00000000)  returns 0x00 (0000ms, 1982ms total)
T1504 002:794 JLINK_WriteReg(R9, 0x20000160)  returns 0x00 (0000ms, 1982ms total)
T1504 002:794 JLINK_WriteReg(R10, 0x00000000)  returns 0x00 (0000ms, 1982ms total)
T1504 002:794 JLINK_WriteReg(R11, 0x00000000)  returns 0x00 (0000ms, 1982ms total)
T1504 002:794 JLINK_WriteReg(R12, 0x00000000)  returns 0x00 (0000ms, 1982ms total)
T1504 002:794 JLINK_WriteReg(R13, 0x20000800)  returns 0x00 (0000ms, 1982ms total)
T1504 002:794 JLINK_WriteReg(R14, 0x20000001)  returns 0x00 (0000ms, 1982ms total)
